! File created by NanoVNA (https://gen111.taobao.com/)
! Start 1000000Hz  Stop 60000000Hz   Points 101
# HZ S MA R 50
!S - Parameter data, F S11
1000000	0.999997901	-14.890782442
1590000	0.999437420	-23.676097064
2180000	0.999095943	-32.414220337
2770000	0.998448704	-41.166832338
3360000	0.997089348	-49.917702489
3950000	0.995910190	-58.610781240
4540000	0.993952886	-67.277094787
5130000	0.992561375	-75.892081421
5720000	0.990402153	-84.480276877
6310000	0.988326748	-93.036692286
6900000	0.985455613	-101.553065616
7490000	0.983191927	-109.956301144
8080000	0.980352309	-118.373500391
8670000	0.977217704	-126.751987353
9260000	0.974655335	-135.057275429
9850000	0.971822045	-143.369373570
10440000	0.969197383	-151.606909631
11030000	0.966266901	-159.847296278
11620000	0.963512099	-168.063729966
12210000	0.960969754	-176.256915293
12800000	0.958365282	175.574599581
13390000	0.955596183	167.369118835
13980000	0.953641842	159.183633753
14570000	0.951474709	151.021047766
15160000	0.949785808	142.810918001
15750000	0.947417426	134.621506497
16340000	0.945817227	126.359691978
16930000	0.944341811	118.125957159
17520000	0.943640990	109.849957850
18110000	0.942634426	101.518665457
18700000	0.941484347	93.170253701
19290000	0.940347879	84.772462357
19880000	0.939981172	76.335216752
20470000	0.939219504	67.858428278
21060000	0.939157746	59.348208027
21650000	0.939207738	50.793039838
22240000	0.938702311	42.190233269
22830000	0.938743348	33.612107369
23420000	0.938752820	24.959808693
24010000	0.938859931	16.284190296
24600000	0.938891489	7.614525072
25190000	0.938913823	-1.080707107
25780000	0.939118713	-9.787179436
26370000	0.939305332	-18.482835084
26960000	0.939538262	-27.166142624
27550000	0.939680780	-35.845190473
28140000	0.939400202	-44.498646493
28730000	0.939507875	-53.138044062
29320000	0.939031159	-61.727125513
29910000	0.938679504	-70.289168511
30500000	0.938539043	-78.801821816
31090000	0.937889230	-87.297049474
31680000	0.937372646	-95.728714915
32270000	0.936235894	-104.122151662
32860000	0.935816812	-112.467468617
33450000	0.935163833	-120.796823356
34040000	0.934051220	-129.047689347
34630000	0.933369580	-137.307253094
35220000	0.932214926	-145.516193360
35810000	0.931352238	-153.699332716
36400000	0.930571966	-161.855880566
36990000	0.929797890	-170.006542134
37580000	0.928555413	-178.150376455
38170000	0.927677312	173.739680645
38760000	0.926996110	165.599788274
39350000	0.925990162	157.492160129
39940000	0.925060524	149.366830836
40530000	0.924123441	141.206593073
41120000	0.923424379	133.051307501
41710000	0.922609191	124.874696294
42300000	0.921637905	116.620724186
42890000	0.921150786	108.346506015
43480000	0.919987011	100.040028495
44070000	0.919213496	91.676114191
44660000	0.918855822	83.272994703
45250000	0.917754641	74.836063366
45840000	0.917365215	66.353438222
46430000	0.917093148	57.812361479
47020000	0.916119511	49.214619880
47610000	0.915352895	40.596170704
48200000	0.914936499	31.941963986
48790000	0.914218194	23.273408152
49380000	0.913739252	14.573381485
49970000	0.913125016	5.818204128
50560000	0.912755599	-2.917161250
51150000	0.912245014	-11.672779505
51740000	0.911964168	-20.438710000
52330000	0.911081736	-29.210480649
52920000	0.910661510	-37.940124857
53510000	0.910454593	-46.654922535
54100000	0.909543372	-55.340485780
54690000	0.909286742	-64.011158249
55280000	0.909219919	-72.613560731
55870000	0.908350335	-81.205871734
56460000	0.908159493	-89.756146079
57050000	0.907782796	-98.264668179
57640000	0.907856991	-106.706466564
58230000	0.907022491	-115.097107931
58820000	0.907022959	-123.490158340
59410000	0.906970526	-131.824478599
60000000	0.906759395	-140.096504325
